!CSV A.01.01
!Keysight Technologies,P9382B,MY61100054,A.15.75.22
!Date: Monday, November 28, 2022 14:46:15
!Source: Standard

BEGIN CH1_DATA
Freq(Hz),S11(DB),S11(DEG),S12(DB),S12(DEG),S13(DB),S13(DEG),S14(DB),S14(DEG),S21(DB),S21(DEG),S22(DB),S22(DEG),S23(DB),S23(DEG),S24(DB),S24(DEG),S31(DB),S31(DEG),S32(DB),S32(DEG),S33(DB),S33(DEG),S34(DB),S34(DEG),S41(DB),S41(DEG),S42(DB),S42(DEG),S43(DB),S43(DEG),S44(DB),S44(DEG)
1000000,-44.793934,-47.628983,-63.992432,-110.06697,-65.591057,-141.25693,-71.501236,23.862928,-69.012032,32.412899,-47.640602,-117.58373,-66.467476,-131.54333,-69.083611,-90.115623,-82.26136,-63.119179,-77.179771,-61.175743,-64.537422,109.17337,-64.524155,-112.27127,-65.636665,-150.37897,-71.053452,111.01335,-61.425442,-106.47871,-40.446289,-115.12396
1311250,-25.277975,-40.180721,-69.362267,-108.91383,-77.923538,-61.771042,-78.239761,-177.21317,-64.351463,93.573624,-25.230463,-16.533806,-65.807983,141.26015,-69.341164,-133.42549,-66.598106,98.888153,-73.698891,89.071716,-25.863075,-30.89753,-70.77755,-173.00885,-67.44278,-74.017517,-69.78936,-42.915474,-71.317841,-158.38895,-25.677898,-34.697277
1622500,-26.681923,-82.808968,-69.562981,-149.57423,-68.495049,2.9358435,-65.029861,62.090717,-74.037117,-138.013,-24.164724,-61.449425,-76.790276,155.51279,-78.306526,-76.773361,-69.131889,169.05942,-77.047791,-88.010178,-26.205803,-78.015312,-67.815773,26.290031,-69.740379,41.966301,-65.641518,-24.608986,-72.683968,71.034019,-24.960297,-76.842171
1933750,-49.606773,-54.12114,-71.442146,84.70816,-68.829964,-37.14436,-67.50901,-152.00177,-66.249428,-12.057851,-34.754452,-102.55051,-67.260216,-153.51593,-93.444733,-174.80888,-75.781517,54.886147,-70.728432,-167.42487,-42.98259,-122.49155,-67.790459,-85.296898,-72.908875,149.33664,-71.578575,-69.954704,-75.84597,82.537949,-35.67664,-118.74518
2245000,-29.520418,-24.54542,-80.65419,-122.27648,-68.774574,54.54734,-66.480576,-86.987511,-70.56852,165.27306,-30.96726,0.44344926,-82.7911,-152.41405,-65.419403,32.458332,-67.858917,-92.196281,-68.222099,36.836185,-30.891991,-16.626312,-72.67765,-87.471786,-69.71859,23.333727,-65.406326,30.277342,-72.716522,149.08217,-31.753323,-18.559132
2556250,-29.86385,-73.527367,-69.75985,56.56958,-67.338081,19.489944,-64.452171,84.236191,-63.239285,-88.238716,-26.833015,-46.232376,-65.553467,40.658237,-68.035454,-37.494915,-69.973747,150.3215,-65.883224,-172.44994,-29.353241,-67.56321,-82.352242,-147.26965,-71.092232,24.960323,-68.480469,-96.934631,-73.798203,-109.69162,-27.927752,-64.019287
2867500,-43.732838,-83.174278,-68.100067,179.98589,-67.315704,98.627472,-72.114067,-95.324944,-72.785072,19.023809,-31.754829,-100.18994,-65.619766,92.846634,-74.062881,10.491552,-70.216194,-32.265717,-64.505409,-28.174183,-38.025162,-117.52623,-74.532509,-176.37856,-78.011772,9.0918388,-67.547867,159.79367,-67.924385,13.915207,-32.384666,-114.67055
3178750,-32.47588,-24.093103,-65.213371,-18.703712,-68.669952,-141.6601,-68.545547,64.119751,-69.208641,-164.12418,-40.666286,29.154202,-66.468582,-94.668167,-74.507454,130.19658,-76.301208,6.6121283,-69.11869,22.9445,-35.496788,-8.5861149,-74.814064,139.96121,-68.754524,-156.11244,-66.428856,100.31422,-67.518295,152.37404,-42.661148,-24.257868
3490000,-30.686544,-71.115158,-64.422134,-123.11457,-68.129478,166.04704,-69.336548,171.95818,-65.683197,-177.81718,-29.772539,-24.643778,-68.403313,-94.759071,-66.325821,-133.63914,-67.018623,-99.98864,-67.750923,-100.23029,-30.679804,-58.941105,-70.095207,-4.4177742,-67.610168,0.94045472,-73.692436,-147.1815,-66.497955,-12.510928,-31.434711,-55.414173
3801250,-39.589565,-114.7448,-69.853897,-44.624931,-72.107384,-60.373962,-68.694908,143.98402,-67.747139,108.76213,-31.432745,-78.84391,-79.294998,97.642281,-67.09758,-144.14192,-64.284088,90.733536,-73.362419,-87.638824,-35.233051,-114.38828,-74.110458,34.775455,-78.896912,-64.44709,-61.155689,-163.1115,-71.072899,172.69122,-32.782368,-107.14075
4112500,-37.150368,-25.185633,-81.823128,-104.06001,-74.985985,107.70518,-67.514771,-92.226318,-70.492752,-166.58238,-49.148251,-151.64186,-67.955002,148.8403,-68.968353,-122.66759,-69.907341,106.1813,-69.336105,45.081963,-49.784687,-8.9949055,-81.717941,-151.53456,-62.47916,-131.03857,-79.273895,-64.674614,-69.604073,142.26007,-47.000347,-137.45776
4423750,-32.478836,-69.937675,-70.762131,-128.40274,-91.891563,-61.325607,-61.891666,-150.13535,-71.389442,-128.28136,-34.042713,-5.8342595,-71.453941,-160.13486,-65.177948,167.63322,-72.243607,85.800362,-71.851753,151.37737,-34.433247,-50.321899,-65.732193,48.481041,-74.80777,55.202293,-65.005867,-136.25485,-69.656097,-71.630508,-35.41235,-50.511585
4735000,-37.719433,-110.30995,-72.519852,10.911036,-73.724754,123.83703,-70.621567,82.523155,-81.944298,117.8521,-32.383781,-62.82811,-67.607712,177.48074,-78.668182,104.63454,-79.851456,-130.47873,-70.594391,-127.73731,-36.161522,-95.81131,-83.800568,-145.94002,-72.646988,-48.524624,-66.740227,14.617874,-70.730354,-19.230762,-32.999611,-99.720917
5046250,-42.929871,-26.158449,-71.888618,-26.736433,-65.669868,-140.65285,-70.282135,-131.31932,-66.061226,-130.12048,-40.947979,-150.16077,-66.9795,-138.05586,-79.276009,92.549454,-76.089455,-178.24489,-65.539452,-143.48906,-50.60326,-55.613483,-68.632103,148.76987,-67.425293,25.477757,-69.625565,-151.7021,-65.873917,59.73167,-38.952129,-162.06526
5357500,-35.724377,-68.254402,-66.464088,-10.834797,-66.354179,119.28156,-65.40918,-153.4375,-84.167633,65.640953,-36.564888,46.710621,-66.725868,26.461254,-66.644981,16.077732,-67.859062,-148.36028,-73.934692,119.57388,-36.484138,-52.526295,-73.695274,-22.454632,-65.557594,-167.78609,-69.13195,-115.54726,-87.228561,75.724602,-46.300896,-3.6961372
5668750,-40.878345,-128.88478,-61.36927,50.136147,-71.537346,-29.583479,-68.104469,-105.85717,-73.913025,-13.795588,-33.910694,-19.689579,-71.967407,140.7708,-67.067307,-177.37025,-62.634335,-90.993378,-79.840141,51.108749,-36.399872,-108.22111,-64.912231,-176.89885,-61.144981,-113.79182,-73.395325,-107.72493,-67.013329,-165.36581,-39.398384,-81.363861
5980000,-41.446766,17.327644,-81.520744,-57.949162,-66.227097,-158.17493,-69.476158,-127.15215,-71.257301,9.0911446,-42.660137,-73.144699,-75.997864,112.84618,-68.837967,131.08688,-72.490776,-161.59532,-65.36042,19.188278,-47.784138,179.97102,-63.809692,130.01776,-64.618515,97.453293,-81.901077,-8.3655128,-73.360641,126.60507,-45.358589,-162.04475
6291250,-34.453728,-40.743664,-74.797928,69.036781,-65.01149,-170.26944,-62.714417,117.33676,-86.303894,-66.00428,-37.727802,48.861992,-69.485191,-75.197166,-75.93766,132.51857,-70.491714,79.213226,-68.486145,-178.19405,-41.283348,-29.720346,-66.223633,118.73881,-66.565163,-116.92343,-72.864044,111.58949,-70.804214,-14.391118,-40.995415,18.078775
6602500,-36.167164,-92.382271,-66.639397,-93.221199,-68.313889,-62.614155,-84.089996,40.783485,-89.248451,-136.34961,-32.19516,-2.6747792,-62.68959,-48.112404,-68.208488,179.28682,-70.982811,-85.17263,-77.067635,162.93608,-37.90517,-100.48784,-66.585144,63.593502,-66.361664,130.60214,-67.565964,79.710457,-76.441582,85.537888,-35.901562,-55.733513
6913750,-45.643841,-97.228249,-70.325951,70.984009,-63.561768,122.1906,-65.128052,64.158691,-67.850945,170.18037,-35.804779,-54.355099,-65.214615,-175.7605,-66.514549,-139.85538,-72.498833,-159.69173,-72.865479,97.323853,-41.769615,173.26645,-75.182526,166.85217,-76.233665,76.781166,-84.636421,-130.44107,-65.017326,-155.18466,-38.020824,-126.49729
7225000,-39.23555,-62.387039,-68.037994,34.342815,-72.384369,156.48105,-79.242485,171.98198,-70.313324,161.44574,-44.519901,81.975075,-72.791222,132.83035,-70.154625,75.207329,-70.457382,5.5807209,-70.151695,-142.27568,-40.420658,31.589403,-64.903503,-152.72102,-69.589348,-56.179256,-73.583397,-120.07713,-70.024147,83.530411,-42.975552,102.54496
7536250,-39.474907,-108.83168,-72.247643,19.692762,-66.296593,-56.784103,-85.562561,-136.24515,-85.167953,-72.994919,-31.912031,30.137579,-67.993103,51.967445,-65.440689,117.80856,-70.110138,-77.85321,-63.187431,16.125029,-38.011505,-45.373672,-62.50893,-13.369475,-74.626305,-73.924599,-81.818054,-79.296928,-68.875679,172.9156,-36.855606,4.328876
7847500,-59.854095,-178.93277,-67.607681,18.263889,-69.019073,-55.622932,-70.425209,31.433418,-70.739731,40.255093,-30.856815,-14.034703,-69.14283,-57.364922,-66.549683,-62.508049,-76.301529,65.823303,-61.993973,89.564964,-44.638508,-105.71838,-71.099182,-71.852386,-67.696358,-116.59692,-72.565315,-91.786407,-69.074547,38.710472,-37.752609,-51.04372
8158750,-42.209991,-26.339659,-72.08709,-49.203575,-71.303268,40.96822,-68.364067,99.711708,-65.801689,172.54543,-35.516747,-41.631687,-64.172287,-94.545235,-76.443176,55.468731,-69.748497,-38.349354,-70.103462,-55.823868,-48.361958,18.53743,-75.363312,154.14296,-69.918335,130.93114,-68.683578,141.18076,-72.246384,179.73877,-43.71685,-72.328659
8470000,-41.769836,-95.658089,-68.37381,-147.51884,-69.282478,-160.64807,-84.300011,142.74135,-66.489891,-40.440102,-38.249828,-20.207136,-72.422966,-157.78879,-69.685951,-88.269028,-67.756294,-80.335976,-71.640038,-56.543079,-39.992882,-50.784317,-80.901329,-139.81973,-68.370491,22.894823,-76.920242,14.657435,-62.588741,-96.349083,-41.477615,-45.815418
8781250,-48.237057,150.27457,-68.457649,93.041634,-70.451569,59.047855,-74.444382,-36.800129,-65.023354,-101.87251,-36.31282,-31.814697,-66.767227,-84.804482,-72.656197,28.676495,-73.546997,76.391403,-75.896378,23.386639,-42.86533,-121.83962,-66.635132,-44.054047,-69.395576,-25.692974,-65.700806,-106.60209,-72.185005,67.29583,-38.77668,-86.338783
9092500,-42.991783,15.84773,-74.335152,92.092041,-81.696381,-54.49366,-68.481651,115.65603,-82.50177,106.09708,-44.266148,-46.393143,-72.164207,27.619677,-69.618393,58.267315,-62.781139,-163.98259,-88.791275,19.652712,-47.620182,83.819305,-71.657921,-92.861542,-64.913513,-161.02173,-69.247833,14.851808,-76.554054,-152.61194,-44.395966,-144.9989
9403750,-43.785374,-39.592335,-65.370583,-150.86841,-67.538162,168.8539,-64.787125,107.17502,-65.591934,-74.173233,-38.461929,35.015079,-65.43103,-128.36801,-70.567841,86.32489,-65.091164,-133.71829,-68.527985,-113.24767,-40.719418,-9.5601101,-71.175713,-56.467697,-79.453278,82.308632,-76.595131,61.923077,-65.991043,41.36639,-47.273766,36.982769
9715000,-47.26741,24.436979,-75.076782,-4.7583623,-70.337204,33.869457,-70.355988,-167.95619,-64.723114,-20.895676,-32.970364,0.97505617,-65.593681,-169.31313,-64.304619,-28.505987,-70.700714,175.24001,-66.820358,-142.6619,-41.187305,-71.312042,-63.049969,166.26904,-72.098297,-65.304718,-72.38208,-58.147415,-71.235413,-43.963928,-39.964531,-32.793617
10026250,-37.788467,-1.9269115,-73.511383,45.262798,-67.734329,40.715061,-72.959023,148.46249,-70.380066,-15.877439,-34.915291,-32.117054,-63.152214,121.21461,-67.10363,-67.800827,-72.539261,30.648132,-64.267845,147.35271,-57.930405,-73.811638,-73.4813,-115.81231,-71.414162,-74.85965,-80.558647,-6.2004509,-72.20047,-100.16103,-43.752823,-66.919807
10337500,-36.466103,-50.143658,-69.434769,30.409908,-68.214958,-142.16367,-66.173485,33.89957,-70.310684,-50.798161,-42.133038,-6.1249981,-67.501663,144.8662,-70.235031,160.45621,-65.153198,61.227238,-71.30291,138.35808,-42.907032,-28.268751,-83.964195,-128.76648,-69.05349,95.246498,-67.604988,21.441338,-73.756241,-147.02176,-47.16658,-17.546263
10648750,-41.931499,-89.664719,-75.510605,-66.552193,-73.587921,36.041172,-67.750778,60.965038,-75.108932,130.86154,-34.806084,11.200788,-60.920311,54.608292,-70.94368,135.51822,-67.422287,-93.324509,-62.417713,91.383179,-40.154186,-77.592949,-64.657341,150.34462,-67.296799,-54.686981,-68.334167,36.693851,-66.145958,59.720894,-38.692833,-38.913422
10960000,-46.825687,-32.490261,-70.45665,-96.678108,-71.915642,56.502357,-68.203903,-88.645935,-67.551704,72.609764,-33.021297,-23.327684,-112.30583,51.14201,-72.754189,94.973816,-70.761856,9.9425945,-64.839035,83.444588,-45.981483,-143.23529,-74.241508,102.05502,-75.490463,-78.052719,-62.242596,46.935246,-73.568512,61.82822,-38.097767,-75.460037
11271250,-41.053638,-50.589458,-66.440338,58.202339,-71.926712,-41.628418,-85.296852,-152.9874,-69.153343,62.238174,-37.507011,-52.110111,-78.575142,91.700218,-66.702637,28.258848,-67.217529,91.108955,-69.603218,93.633545,-55.66724,20.61982,-75.262306,41.116596,-73.345505,86.020737,-63.475933,29.262245,-65.083954,-115.32304,-42.206558,-108.76766
11582500,-44.815777,-73.091118,-62.340702,48.271667,-67.18306,-171.03981,-86.194221,54.480286,-68.930794,132.58305,-41.675003,5.5560446,-63.237797,108.27308,-76.102859,108.85847,-63.639435,166.30443,-65.828384,158.79959,-47.53941,-69.306358,-69.927208,21.411793,-76.017235,67.917328,-63.690342,121.92337,-66.884422,136.64294,-49.856678,-74.651344
11893750,-44.025597,-40.49905,-80.180237,56.465443,-67.337624,-23.717758,-77.63784,21.700792,-75.993675,151.06154,-35.869194,1.6078906,-64.974419,16.086216,-65.744041,37.29081,-66.438477,123.52837,-71.00531,-10.875654,-53.241978,-138.07581,-67.522392,120.66961,-65.91951,67.96859,-69.524307,137.73457,-68.703552,76.253723,-43.725536,-61.930084
12205000,-39.219597,-63.825886,-79.063759,-35.190266,-67.827118,5.0338492,-73.24173,-156.83293,-69.550713,-49.211159,-35.625107,-16.768364,-62.817795,42.962029,-65.860588,-24.364319,-64.152924,119.82582,-62.732849,66.740005,-48.462517,25.673304,-70.4198,132.89635,-71.616951,-92.112419,-71.60759,-26.542017,-70.948296,-80.510818,-43.251263,-87.484917
12516250,-41.528912,-112.83412,-70.756073,98.806885,-74.085114,14.394653,-80.678619,109.6011,-66.022301,-8.4215231,-37.443508,-18.758909,-64.153351,40.051994,-69.777985,133.50398,-70.670662,37.833557,-63.338356,54.124901,-43.083485,-44.088856,-63.509369,150.32089,-69.916367,-58.675518,-74.580849,-127.82653,-73.351517,-105.29234,-43.924728,-94.20163
12827500,-62.410633,-130.81273,-65.750725,-172.88202,-62.547184,-98.093971,-70.209732,105.96729,-69.385582,72.880592,-37.059402,-20.110901,-75.593445,95.131882,-72.194672,111.19077,-69.87085,0.40846744,-64.319725,13.617659,-45.396729,-114.29166,-78.376869,-28.132647,-64.832764,35.884609,-89.24752,90.083817,-67.007957,133.34399,-44.608196,-119.71568
13138750,-43.449669,-47.101189,-64.766975,-61.730286,-80.674805,-110.00564,-65.837677,-161.7308,-71.507805,48.603245,-39.25069,-27.873428,-72.037415,-145.15419,-65.473549,-143.48267,-67.681229,-33.319748,-76.634979,-90.418289,-53.394459,88.285927,-61.252495,9.6727142,-72.26004,-140.41562,-69.266418,-0.41332138,-64.205238,20.239115,-51.684361,-157.41316
13450000,-42.903366,-96.176842,-64.901962,111.91893,-68.51944,-162.41261,-73.446609,110.40184,-66.29882,88.078636,-39.387619,-1.7559873,-72.224709,43.538006,-69.403404,59.486454,-74.701042,-123.27882,-64.738914,-112.61034,-44.702702,-17.843534,-69.317818,33.495461,-67.986809,19.927935,-69.777283,150.90872,-61.168114,-3.5448549,-48.580418,1.3486861
13761250,-48.375938,-138.08127,-72.339951,112.27287,-68.191513,75.079018,-81.343582,125.0188,-64.664169,-21.363157,-34.963963,-9.9218311,-65.585098,133.26364,-68.041466,-140.87796,-70.07692,-167.90051,-66.71389,8.1096506,-43.711914,-83.506645,-65.997726,42.643959,-68.764801,71.801903,-71.418144,-120.03773,-74.71817,-40.49802,-42.724304,-51.84597
14072500,-50.097397,-109.60709,-66.5159,135.17928,-71.019699,-49.677158,-68.285576,9.4854488,-70.624832,136.25626,-33.939682,-40.084019,-58.408592,114.04871,-64.905373,58.520466,-67.190659,-166.31084,-64.24511,106.95739,-46.47184,-145.54485,-75.238533,51.906353,-73.291481,-17.379328,-74.923813,-164.21205,-67.751839,-61.982887,-40.706619,-87.712837
14383750,-47.629986,-165.80931,-65.743004,156.46225,-71.946045,59.444721,-61.338879,72.700104,-68.759933,-52.483948,-37.044628,-71.826477,-68.603241,-46.640816,-69.638008,-100.64227,-70.985329,-21.166119,-61.437172,14.120505,-51.47094,-162.36639,-70.097458,0.24040057,-67.734718,28.567385,-67.952599,162.5137,-65.398788,-84.751213,-42.358536,-111.47902
14695000,-48.040527,124.45964,-69.57373,-139.03127,-60.752899,97.720184,-63.781227,-110.13758,-65.624161,-46.810974,-46.087482,-85.767593,-64.044334,131.0806,-65.350243,30.279608,-71.653275,-60.887154,-67.668221,-36.810204,-47.065838,170.49788,-74.131401,-28.826765,-68.075981,-2.5738506,-72.773857,-159.76022,-69.790306,72.368553,-41.324516,-126.82548
15006250,-49.391167,37.121403,-77.742699,24.342661,-65.724022,165.39967,-67.180321,82.680626,-67.431732,-175.27527,-48.815331,-18.60796,-78.958702,176.03354,-72.734192,41.783249,-71.592415,-20.68782,-73.98629,-71.356339,-42.902054,118.66856,-78.431267,155.6109,-66.673973,-137.77478,-65.918221,132.62393,-61.936768,107.91003,-41.543427,-161.47432
15317500,-52.46994,-55.443802,-68.094765,-153.01788,-78.475548,-46.105705,-64.080902,-25.349661,-87.154167,120.90271,-48.118664,14.393831,-66.630852,-111.15466,-68.75824,-149.11452,-68.182365,83.01519,-61.399639,-14.519529,-42.185219,60.770687,-71.638161,160.08679,-62.370171,-173.53596,-63.200741,117.06492,-65.753189,30.260084,-43.448235,149.94402
15628750,-57.263172,78.793869,-66.616066,148.65962,-78.246651,71.522217,-65.233276,-38.876266,-66.269646,-153.06824,-42.380383,23.576992,-65.164917,-41.621841,-79.596367,-2.7330425,-73.483093,-140.71965,-72.495811,172.51358,-44.965973,5.32654,-65.53083,152.17604,-65.780327,24.878416,-71.292465,-155.5089,-71.963852,28.96242,-50.146347,61.588554
15940000,-48.809044,31.373644,-65.584557,-114.69604,-69.152115,-166.67293,-78.4617,56.613628,-62.53083,-65.396645,-38.425373,-3.190099,-67.077057,76.782005,-66.837387,104.9754,-73.702721,86.890274,-66.663124,101.93756,-48.646141,-71.203316,-68.18029,77.058426,-63.958092,42.910633,-68.847488,125.81333,-64.453873,-84.182358,-47.306446,-53.549557
16251250,-56.505581,-15.293315,-65.128906,4.0266399,-61.632473,143.86519,-84.444115,91.563576,-72.962669,-69.207222,-39.246899,-37.034855,-72.37442,42.615852,-70.767647,-23.491837,-68.386192,-150.89868,-71.680458,-20.256413,-51.106636,-138.03004,-64.37352,162.65865,-61.831905,-3.6213791,-70.361931,169.1087,-60.006939,-174.27399,-44.703407,-103.37254
16562500,-44.195332,77.682381,-66.967026,-87.912651,-67.345108,-102.59014,-70.068344,-44.619781,-64.501022,-39.873032,-43.755222,-74.375221,-65.142746,-105.8544,-71.532021,56.265594,-63.187248,163.51398,-69.522644,-161.0961,-48.251114,160.18851,-70.676414,75.868553,-73.213615,-6.8016868,-65.590813,132.94254,-64.342003,96.488602,-41.622551,-143.56641
16873750,-40.497936,30.083879,-74.304657,-74.80397,-63.768887,64.141266,-69.474411,166.98218,-74.03199,-114.739,-53.222404,-154.88266,-66.861786,11.30895,-67.192177,108.92194,-65.584747,136.31525,-66.903397,81.992546,-42.917522,113.58362,-69.361183,41.908096,-83.544785,-78.555,-75.869728,-81.206337,-77.833267,-129.0627,-40.616184,166.27589
17185000,-40.389854,-23.731325,-64.638092,82.050911,-71.551163,-38.013626,-72.660347,43.824348,-72.886635,146.17656,-44.533916,114.49509,-77.85141,14.920916,-69.627678,-172.69353,-67.347832,142.09885,-74.879967,-6.2997575,-41.092464,61.299377,-62.848888,45.558563,-67.610909,-68.92305,-78.538475,21.22226,-73.302704,-14.169612,-40.377922,107.5629
17496250,-45.715858,-79.689728,-69.814682,-54.927639,-72.389732,172.06522,-68.109245,84.933624,-66.170898,-32.931034,-37.854462,75.940727,-63.977036,146.32901,-65.647598,-116.21741,-67.194061,72.755615,-66.649353,8.0878754,-47.023918,12.363864,-73.644203,6.7699485,-69.872894,-167.11049,-75.99807,-76.002159,-61.888275,-36.736633,-41.382435,41.303688
17807500,-57.515301,-76.788765,-62.309032,158.77905,-69.461823,156.8665,-75.485207,-12.405832,-68.917442,21.044878,-35.22271,38.403599,-69.642311,-126.09206,-71.129395,-6.8077211,-67.209358,-136.82854,-74.111343,-108.66318,-51.538879,-177.0368,-69.942528,-113.81115,-73.964729,35.230331,-68.593544,45.18729,-78.768028,-113.2056,-43.493214,-35.48381
