!CSV A.01.01
!Keysight Technologies,P9382B,MY61100054,A.15.75.22
!Date: Monday, November 28, 2022 14:46:38
!Source: Standard

BEGIN CH4_DATA
Freq(Hz),S11(DB),S11(DEG),S12(DB),S12(DEG),S13(DB),S13(DEG),S14(DB),S14(DEG),S21(DB),S21(DEG),S22(DB),S22(DEG),S23(DB),S23(DEG),S24(DB),S24(DEG),S31(DB),S31(DEG),S32(DB),S32(DEG),S33(DB),S33(DEG),S34(DB),S34(DEG),S41(DB),S41(DEG),S42(DB),S42(DEG),S43(DB),S43(DEG),S44(DB),S44(DEG)
1000000,-42.234997,-30.47233,-65.054489,-84.175026,-70.859612,-126.60125,-65.060524,-104.41707,-71.827232,-41.015106,-43.46265,-115.48798,-68.274918,-155.05766,-63.808968,-168.27307,-65.587952,129.5471,-69.283882,-45.193886,-52.727318,-71.792999,-77.224762,-171.55978,-68.754562,142.44324,-70.671768,-157.97563,-65.913071,10.339028,-40.264492,-110.01955
1311250,-26.870361,-36.129326,-65.080742,162.2193,-75.706894,80.255882,-65.220131,44.840805,-80.88652,78.571838,-26.497385,-11.431916,-70.862373,-108.61127,-68.719566,160.64259,-63.379028,44.891151,-73.587074,-174.40251,-27.075308,-30.075947,-75.986526,47.300659,-67.046989,87.07914,-66.752228,85.080582,-65.710724,-102.06561,-27.1735,-27.758381
1622500,-28.331106,-88.666763,-72.135895,-3.8217709,-67.631058,-17.03693,-74.781342,-121.76779,-72.386284,-14.417356,-25.463192,-63.226017,-66.954742,37.767384,-65.166954,35.127632,-66.178658,155.21077,-76.84182,111.42993,-27.517023,-82.795013,-68.780632,-145.81081,-65.07016,-84.689728,-67.100052,45.538654,-72.197014,-90.173141,-26.427658,-79.122665
1933750,-51.693275,-72.370262,-70.801308,-11.161914,-69.276512,46.261116,-67.383217,56.594109,-73.045021,32.982609,-34.747261,-108.59752,-66.305634,164.36209,-77.887444,34.474808,-71.652618,-167.07843,-66.63102,46.273052,-41.502838,-128.57855,-64.754005,-170.05856,-66.761162,40.644123,-71.662636,-131.36865,-72.524864,-165.83389,-36.004047,-122.75736
2245000,-30.079525,-27.25605,-94.306335,155.85149,-67.324005,-49.353561,-70.889046,76.071251,-73.8592,126.72239,-32.004982,-0.25231728,-68.259193,-152.0385,-72.982353,-128.21165,-73.632362,-70.742264,-74.354362,-128.48,-31.526842,-20.629679,-71.122986,-106.41873,-62.832584,-26.143677,-71.46347,26.142523,-69.637024,-177.50464,-32.779762,-19.640873
2556250,-30.088846,-76.940979,-67.50502,151.08385,-68.690422,111.1811,-72.571297,-78.481949,-68.432518,55.563107,-27.232599,-49.978436,-70.530792,-99.782845,-65.89666,-60.094196,-85.29789,-98.643143,-79.439911,67.815826,-29.37314,-75.23317,-70.266685,107.7911,-63.168999,-156.69475,-70.277679,12.523899,-65.075912,49.380573,-28.237856,-67.658119
2867500,-43.587658,-93.45163,-69.70047,-139.67667,-72.545593,8.482152,-71.137199,39.278019,-74.252983,27.273092,-31.741879,-105.419,-62.367542,102.89475,-74.442307,-162.72426,-66.951157,-147.70271,-66.679558,62.259354,-37.414425,-122.3772,-70.406136,-165.59911,-63.951935,145.88536,-67.891342,-107.20296,-73.612175,94.572479,-32.276073,-116.25191
3178750,-32.420155,-26.462006,-69.677399,-165.89265,-70.846924,-103.24366,-73.265411,17.667168,-67.390289,117.41262,-42.287605,30.482195,-65.135277,-10.955687,-69.017982,-23.795599,-60.4077,44.289993,-69.450859,-108.78596,-36.76313,-16.398064,-67.417648,51.699497,-70.653366,173.19678,-70.021042,-35.96357,-71.954796,91.295349,-44.037514,-31.92164
3490000,-30.729509,-73.290527,-71.757698,-155.08302,-65.68969,112.60246,-73.456467,60.002613,-75.880455,139.57977,-30.227697,-28.922167,-64.235992,-114.31197,-71.802284,159.58118,-76.996429,71.080528,-71.82785,54.601326,-30.77972,-63.821411,-70.911064,-155.3568,-67.586121,-118.53442,-65.377266,-128.67346,-72.736465,137.27924,-31.714497,-59.894238
3801250,-39.841969,-114.06632,-77.720085,-84.859566,-62.550167,58.244213,-67.545631,-162.86668,-62.966648,4.9779072,-31.225319,-84.607262,-67.115318,-143.87599,-71.866608,-1.7853732,-69.606636,78.194054,-66.387741,55.935093,-34.239578,-115.97895,-71.922523,-77.72979,-75.402725,-55.689186,-66.577339,40.528801,-69.635475,4.8012052,-32.283386,-109.93318
4112500,-37.25275,-22.874126,-72.38279,106.71911,-67.480293,151.34694,-75.042725,-70.53804,-76.532585,-54.396065,-46.938877,-156.15714,-77.951942,39.275417,-76.965073,135.71152,-66.75193,-69.076591,-69.032944,51.079712,-48.873043,-16.912998,-73.635078,-54.199558,-70.813576,-148.54688,-68.91098,-43.407665,-63.592606,1.7128468,-45.279915,-149.44762
4423750,-32.320583,-67.830055,-66.733063,-91.358955,-60.914139,70.607635,-68.687103,-83.136757,-68.929306,-178.69524,-34.75074,-5.2540469,-68.051765,108.23877,-66.759674,-152.68477,-81.982132,-173.17973,-70.219879,-144.52063,-34.904461,-48.657932,-69.274773,-133.88936,-67.41507,-107.35361,-72.6922,-107.17387,-69.313507,137.48389,-35.924812,-53.56498
4735000,-37.889603,-117.58154,-76.589134,136.38632,-71.505638,120.27507,-69.734703,88.971329,-77.404556,152.62143,-32.637257,-68.800232,-66.039131,147.46141,-78.835289,-62.121799,-66.03965,-108.46992,-72.569855,160.98154,-35.663265,-103.03118,-69.836754,55.830132,-78.803307,-109.30602,-72.04998,-97.155426,-76.914253,119.15629,-33.204174,-102.66872
5046250,-43.336533,-28.89654,-66.541763,92.29715,-76.245239,15.537424,-77.122253,152.61555,-62.202492,125.85087,-39.504959,-150.24014,-63.346252,106.99235,-68.154121,105.39609,-72.546638,9.8105631,-67.635147,119.12885,-49.546276,-83.791847,-62.796963,-40.447987,-74.008728,-140.51488,-64.380592,91.221077,-65.791336,32.509315,-38.331032,-164.84335
5357500,-35.577862,-68.28717,-66.496872,79.066055,-74.98877,-171.50024,-66.927406,117.8837,-63.595955,-127.36845,-36.654011,48.360107,-74.5979,-34.303089,-72.151367,-141.99501,-67.409576,2.5610814,-61.832684,68.325912,-36.876411,-55.900078,-67.168327,-104.12586,-71.06311,44.337868,-63.471657,-109.43525,-69.142952,-95.43042,-48.352875,-6.1794062
5668750,-39.808422,-128.2294,-74.791512,-25.377672,-69.733269,49.543709,-70.427185,113.77901,-81.301064,175.61328,-34.142788,-24.081455,-75.552811,125.17606,-73.50705,-25.398685,-73.984573,-69.880684,-67.705437,7.2042737,-35.69313,-113.01491,-72.834274,103.3196,-66.84008,-138.46751,-64.761841,38.989044,-69.688339,145.97188,-38.888992,-88.911324
5980000,-43.072289,21.185122,-68.759094,-133.54562,-68.770264,-11.400324,-73.114502,126.61365,-83.684494,-103.66296,-42.573818,-84.683601,-69.811584,113.7863,-70.750488,55.889935,-68.861259,163.59119,-69.730156,-66.641449,-46.071701,-164.55998,-67.682922,36.888626,-62.576927,-70.338081,-78.205055,16.140276,-68.55101,50.450794,-44.477844,-169.64688
6291250,-34.54678,-42.985893,-76.832359,163.03328,-72.46479,150.19931,-63.8535,2.8953872,-69.273216,116.10664,-38.692253,53.61108,-62.101742,175.07059,-67.775612,-136.52466,-77.534882,-141.44681,-81.695442,26.553759,-40.788677,-42.794861,-69.19191,124.59409,-61.468395,40.713451,-73.158112,176.57079,-74.183449,136.98491,-41.742958,18.731342
6602500,-36.499306,-93.920364,-64.242744,-69.873512,-66.581841,153.02768,-66.837708,-168.96971,-78.954346,147.46088,-32.678234,-2.7511725,-69.222954,-76.704391,-66.237816,67.471512,-81.049393,166.5656,-85.180687,142.75682,-37.043762,-100.78318,-66.294525,71.62764,-65.523537,-10.09552,-69.497169,-62.011372,-72.388206,62.344479,-36.361679,-58.381813
6913750,-46.132362,-92.27108,-62.244331,-42.267567,-69.961906,138.45303,-66.81813,-40.852001,-63.581654,-98.445724,-36.435352,-62.781971,-72.526169,-164.93118,-72.269997,-136.8349,-75.447021,163.43462,-70.197777,177.1024,-41.419285,172.97488,-66.124374,90.901489,-78.652351,-98.987846,-80.893806,19.341074,-73.072762,-138.43469,-37.747108,-132.60454
7225000,-39.433125,-65.464447,-75.716614,104.58344,-70.470345,106.95812,-66.288467,36.930542,-67.693764,133.93311,-45.347637,106.40598,-75.598862,112.30291,-77.016594,128.39107,-72.090118,-20.798897,-69.786652,-171.64978,-41.919914,36.628166,-70.11454,-124.33995,-71.610558,-116.00657,-72.792046,-108.81083,-65.283188,85.744179,-42.730003,120.71223
7536250,-39.903545,-114.86823,-69.936211,65.390869,-65.477608,67.106873,-68.256233,75.160912,-74.755768,-10.809149,-32.520817,31.307056,-62.789284,141.98666,-70.940384,-101.63085,-77.141037,168.48143,-90.61972,-13.241075,-39.20182,-55.002651,-71.985672,154.95076,-69.024956,56.387226,-74.226082,-106.83661,-65.854034,-49.184872,-37.815823,3.4806335
7847500,-53.900345,157.16751,-72.65657,-37.496365,-70.950371,-124.63541,-69.65995,-19.720768,-72.14357,157.91808,-31.271803,-14.958611,-65.157425,-12.062616,-72.233154,-110.94599,-80.809929,101.92462,-65.636795,69.218826,-43.155396,-118.18687,-76.267021,143.40544,-62.784607,-175.88675,-65.342728,176.8455,-78.152466,-25.134834,-37.721066,-55.979454
8158750,-42.349361,-32.206398,-73.646202,61.47253,-61.407822,166.41223,-75.853432,-123.22045,-71.913216,35.154877,-35.985466,-45.383587,-66.651306,-111.56404,-77.434975,90.481911,-68.893028,-155.34523,-75.429352,141.2724,-48.437489,14.479412,-75.245377,-34.179539,-65.356392,-124.91843,-67.461151,178.00816,-70.099167,-175.31226,-43.798,-85.538467
8470000,-40.92823,-102.59549,-75.249329,-151.90526,-84.727257,33.75531,-68.768478,-145.55258,-70.073341,175.37184,-38.768936,-21.390326,-69.404892,-38.029301,-67.705353,-126.50571,-73.249489,130.18628,-64.045418,-75.751099,-40.055302,-61.059105,-71.51474,-151.39728,-70.179008,14.242,-64.032654,-14.686877,-71.350594,129.00992,-41.50956,-50.494358
8781250,-48.931995,140.90375,-61.93951,-158.40331,-66.745163,108.12018,-77.190369,-65.183151,-64.141144,-156.84265,-36.663845,-33.398281,-67.668861,-36.357159,-79.956161,-105.41439,-72.150749,171.52588,-73.700706,-51.921051,-41.561729,-125.44279,-77.21154,102.53986,-66.932922,-79.649063,-67.941582,24.119478,-63.412094,133.15437,-39.224186,-85.6166
9092500,-43.333931,20.846653,-65.280556,-45.770809,-70.292412,100.43925,-66.464714,-137.38597,-83.061241,71.229416,-43.73539,-62.611286,-66.737373,-117.20586,-73.764328,15.190527,-64.032639,-170.11929,-67.587791,159.49506,-48.426144,104.98106,-69.45929,-147.06053,-68.53241,-27.993237,-65.88826,72.951561,-66.485146,-121.34584,-44.456203,-156.09258
9403750,-44.436485,-46.568039,-71.546394,128.91986,-76.600586,-68.347321,-69.424927,-32.128006,-65.404793,135.77954,-39.925217,39.259624,-63.226395,-164.69977,-68.28019,-155.1911,-66.269295,167.51071,-65.397629,-172.70453,-41.677696,-17.01787,-72.464592,161.05475,-70.283867,-79.880722,-69.26709,2.6689138,-80.529007,-52.233765,-47.639206,45.206684
9715000,-49.315212,25.33724,-71.3041,-134.59729,-70.530975,78.980598,-74.768074,136.82288,-75.075745,154.61708,-33.827438,3.3821783,-69.218826,152.55499,-69.832222,-158.01624,-80.238831,9.3336115,-71.893028,179.33641,-41.76796,-74.353073,-70.740746,-150.49129,-70.711197,32.087311,-68.910942,-21.260338,-64.222984,66.767738,-41.286129,-33.497017
10026250,-38.120464,-4.479815,-72.142204,-59.728386,-69.740112,73.449051,-62.835941,-133.01804,-79.105591,108.39857,-35.367519,-34.502132,-64.728691,99.627495,-83.304565,34.872341,-63.05114,-161.58153,-67.928261,138.01189,-53.082691,-124.86172,-65.647217,149.83084,-70.183907,152.67105,-71.4039,7.0669866,-69.893738,57.041374,-43.719212,-85.497681
10337500,-36.62402,-51.459339,-68.10656,157.4352,-71.651558,117.03816,-65.804962,-95.494041,-73.874825,141.43188,-44.300667,-7.6907864,-73.326454,113.34987,-66.067825,118.29197,-68.22789,8.0005684,-66.13018,121.10165,-44.474407,-22.184654,-65.792168,63.016426,-76.77124,-100.9676,-71.611679,123.46259,-66.661957,114.92605,-47.771412,-22.114889
10648750,-41.573524,-93.160957,-71.420029,9.5379696,-69.250832,176.29674,-69.902122,-36.519802,-67.176895,99.209915,-35.722961,10.709631,-67.662712,44.648373,-67.699409,-106.90335,-64.53495,95.557236,-65.405197,107.13636,-40.072372,-89.573463,-67.770172,148.74554,-62.432167,73.716331,-72.77224,-171.71797,-74.706947,-30.324091,-39.734444,-42.350136
10960000,-49.962959,-23.230171,-76.547241,163.94205,-67.273964,-77.599243,-68.039268,-37.299084,-67.26049,-116.32234,-34.06414,-23.375601,-73.98185,59.949772,-65.057373,-25.877287,-72.587761,45.001198,-67.707428,58.812019,-44.346859,-149.09337,-74.210678,156.71805,-70.093117,97.617546,-71.468491,-40.2869,-65.1082,-3.2925789,-38.071686,-81.593491
11271250,-41.379818,-52.689102,-69.212791,130.9558,-67.765488,96.614059,-78.351265,19.327282,-71.986649,159.52374,-38.669395,-57.772671,-67.44725,-177.72438,-74.518303,1.5621815,-67.240784,173.86632,-67.102531,71.236916,-61.986702,-13.029224,-69.98262,-93.841034,-73.51384,-84.045494,-69.899536,-116.7428,-63.108372,-96.505829,-42.638256,-116.55549
11582500,-45.019878,-70.264763,-64.05397,-68.682999,-63.482365,76.998856,-65.070023,-49.073105,-67.241676,-167.76985,-43.869591,0.25893354,-65.100792,107.20277,-69.13636,162.30174,-65.132164,114.98897,-68.127739,142.00487,-49.246643,-78.241028,-76.216492,-129.60345,-64.380836,49.316547,-63.32399,95.061089,-87.261734,29.155844,-49.515915,-88.815109
11893750,-44.296047,-35.383789,-65.250854,-45.524429,-71.771675,14.6003,-68.114326,47.284687,-67.523201,163.50186,-36.455471,4.6731062,-74.366684,83.612366,-84.124458,-144.59085,-81.539711,7.1225357,-64.264374,42.460758,-52.743191,-155.79448,-83.191864,-172.69484,-65.640251,144.73724,-69.220016,110.24922,-69.728081,-48.274834,-44.849644,-78.29277
12205000,-39.239929,-66.411476,-76.434685,-53.703136,-72.033966,-32.325607,-62.845104,-78.00029,-71.707794,-94.242325,-36.693787,-17.078671,-70.248512,-38.750534,-71.591118,-118.47057,-71.307663,-33.23835,-60.659481,37.640339,-51.680897,37.262939,-69.028557,-139.83195,-68.312515,88.623901,-69.288193,74.506989,-72.384125,171.54607,-43.056194,-92.508385
12516250,-41.29631,-116.68231,-69.622696,-113.90487,-65.027512,61.704353,-85.160988,-84.74675,-65.471291,179.67776,-38.64336,-21.960133,-82.662369,-3.7263687,-69.75383,36.123421,-77.395729,91.505005,-76.746361,-51.615406,-43.550079,-56.116241,-67.67054,100.75276,-73.233795,53.442024,-66.022858,9.2967052,-75.844124,75.2864,-43.82972,-101.75097
12827500,-58.14785,-133.43332,-64.901527,40.111732,-61.874439,-72.359627,-68.383286,-37.081059,-66.114731,91.21888,-37.439999,-24.54248,-68.222076,11.181799,-68.39537,86.641685,-78.427544,-177.20906,-63.891846,-37.300125,-44.614918,-129.82617,-74.286621,54.890808,-67.64592,-85.693604,-61.342369,-34.993202,-60.52317,77.881363,-43.877457,-116.71658
13138750,-43.716709,-45.471066,-64.762268,87.810165,-76.494217,65.128746,-72.046082,88.711975,-69.797432,49.705425,-39.49778,-34.177483,-76.55069,136.0182,-70.791718,140.72148,-83.433487,65.720932,-64.529472,-172.18481,-53.571918,148.96921,-60.576839,36.044811,-66.992981,36.397804,-72.023506,-170.13536,-60.417404,57.239616,-48.573883,-158.63409
13450000,-41.87048,-99.596985,-71.202789,-80.639648,-65.103432,17.796551,-66.476578,-159.49355,-67.75425,82.445824,-40.497562,-8.5465975,-70.085854,172.22281,-77.816742,-5.6317253,-68.117599,-165.88414,-64.430893,-151.24979,-48.152313,-36.935871,-71.778839,102.06464,-67.265198,70.84478,-65.701729,-58.683308,-64.734123,23.696905,-52.241013,-23.195984
13761250,-46.516891,-144.82922,-67.216408,74.421669,-80.979073,63.235703,-68.287109,-94.327995,-69.415428,-75.202904,-35.342571,-12.89504,-66.134163,178.51877,-68.555954,-19.571215,-66.244125,-69.12381,-68.811852,148.80777,-43.184074,-97.768723,-69.308464,82.38884,-74.699669,-79.407761,-64.653954,-47.274986,-64.817833,-76.639259,-42.502838,-62.126015
14072500,-50.538666,-122.81214,-67.850998,108.17015,-62.399105,99.228661,-65.205032,-110.94198,-60.995819,179.81412,-34.20993,-44.948524,-61.330273,76.725288,-64.307533,171.77399,-72.610001,-38.852882,-63.57983,21.447561,-43.822044,-146.63972,-62.853344,-31.216732,-63.947083,-162.16151,-70.444153,74.129257,-69.725082,94.443008,-41.096138,-96.33287
14383750,-46.188667,-165.1058,-73.955437,101.04852,-66.550507,44.250793,-63.138184,-13.691186,-66.545433,142.20967,-37.402092,-81.027061,-71.738213,-160.2023,-65.188911,152.61316,-75.46167,-50.147667,-63.29401,-7.9191666,-46.287472,-171.79202,-68.139114,6.342556,-63.96249,145.48259,-72.932129,162.31107,-70.7687,-51.998981,-41.382694,-122.15308
14695000,-46.498196,123.22659,-67.691673,-16.858351,-73.210014,-4.6560197,-75.95784,-55.211033,-68.213165,68.741539,-45.762581,-112.61407,-67.571251,21.788492,-63.85791,-4.7261262,-66.385796,-6.1482348,-60.19944,-72.820808,-44.386829,176.42497,-78.905838,-99.349457,-77.128891,-135.26717,-67.196533,-138.56337,-63.432915,-55.162479,-40.409931,-133.1627
15006250,-47.854382,32.435173,-70.675446,143.96986,-63.056992,38.983898,-65.331429,140.85738,-76.952522,30.021963,-50.835907,-33.671463,-73.644371,87.615944,-73.497131,86.155685,-68.87571,-152.92049,-75.196152,-82.628967,-42.441212,134.07579,-65.736275,-141.07524,-80.580681,172.17944,-70.024551,119.74958,-65.078926,-148.46443,-40.001987,-157.70178
15317500,-55.051502,-73.095161,-64.529594,-72.135513,-66.476013,141.21553,-69.073341,-8.9049311,-62.435387,124.1906,-52.301998,-7.0769076,-78.644096,30.037834,-64.260231,98.060539,-65.617966,78.67926,-71.148125,-175.13057,-43.519016,72.975868,-67.584587,-80.174698,-63.501514,-86.652756,-68.893372,-58.981117,-79.329063,-70.389587,-42.557301,156.07996
15628750,-55.783543,98.434196,-68.922485,-127.41584,-65.050652,-1.2511122,-62.511711,154.16125,-66.894295,-166.46777,-43.275249,25.413967,-89.829697,80.332726,-74.074821,-119.89941,-59.832935,3.9198289,-68.863716,-173.74844,-48.75975,-8.0861664,-64.77256,-174.0175,-71.312866,113.81859,-75.045593,143.1588,-76.798302,-39.027782,-52.246296,91.429054
15940000,-49.006187,37.211464,-65.926407,-29.676445,-67.912872,138.84717,-67.664597,-80.859291,-68.780991,59.957565,-39.324394,-2.8595912,-66.364288,-0.85958713,-67.769669,48.113976,-62.276081,111.70136,-71.494377,-95.100456,-51.493523,-90.76004,-81.649483,-12.024094,-71.661766,179.81493,-65.342651,38.894955,-72.988579,-0.88185781,-52.101196,-58.435146
16251250,-62.659866,163.52696,-76.72963,-85.981567,-68.51313,30.358696,-77.914894,-23.321177,-64.142303,25.084957,-40.151787,-42.661804,-73.140541,-0.51053035,-64.949936,152.69008,-71.256432,34.876785,-67.13092,69.760452,-49.691265,-143.27112,-72.306427,103.23224,-78.592453,-129.06096,-64.478134,154.17613,-68.484024,159.12677,-44.487354,-117.68616
16562500,-45.832706,77.693481,-73.62944,121.40945,-82.067665,-149.91554,-71.710403,-9.0972233,-76.377731,130.44835,-43.109753,-79.482368,-70.261673,179.89334,-68.695503,63.623508,-72.094566,34.397495,-77.502365,120.91865,-45.559856,174.81693,-73.016861,131.9986,-72.571365,90.16024,-67.677589,-30.893461,-61.986519,129.68765,-42.192654,-147.7471
16873750,-39.77401,28.93976,-70.545013,-6.2449198,-73.952415,-72.711906,-78.614799,-38.389778,-63.628773,-11.418764,-48.289818,-156.09666,-70.146461,-28.175785,-96.325287,-56.563263,-77.064713,-128.20558,-67.341415,-149.64273,-41.883678,127.21278,-74.864517,140.92136,-65.05352,-104.53497,-72.015671,-83.98938,-76.44075,-81.592888,-39.079441,170.2888
17185000,-40.801067,-29.454935,-62.759853,-46.417263,-66.087395,76.496277,-71.019897,-165.00253,-65.142609,-124.8932,-43.441635,126.00553,-67.250549,141.92685,-72.338707,172.0957,-68.751778,-48.232487,-75.04702,-47.073753,-42.715595,76.29409,-68.470039,70.445663,-64.531395,-121.689,-74.865837,-25.557804,-63.311119,13.365166,-39.83049,111.99249
17496250,-47.22345,-87.903542,-82.63369,17.84395,-76.110802,5.5636697,-74.017281,-39.291748,-73.548882,6.2244725,-38.001858,80.872063,-73.787003,29.033058,-63.218662,49.893322,-77.746147,-129.74268,-67.713554,-159.01599,-51.769207,12.531965,-63.508087,-38.85117,-71.910034,-87.968254,-77.242233,63.161396,-63.879967,-163.10631,-42.170486,44.814533
17807500,-57.019485,-80.250099,-67.909721,61.879539,-62.143795,-106.55476,-67.713448,42.14439,-62.511909,-111.68997,-36.202496,38.453266,-71.028023,87.806473,-80.79911,91.481018,-69.402298,32.72205,-84.552338,-142.65315,-47.972324,-168.01552,-64.940659,168.31512,-67.517975,-53.454472,-63.470913,100.27507,-70.999855,152.27992,-43.827477,-38.635387
18118750,-57.948582,-93.542862,-66.495911,159.37048,-73.784958,-4.6320925,-74.264,-43.099106,-66.80674,-169.88359,-37.712967,7.1335893,-62.522316,158.08607,-68.01355,119.58498,-93.886589,89.753548,-76.271797,8.3460159,-43.462643,130.79123,-65.9524,-96.426559,-65.764771,157.09996,-65.796364,4.2129364,-71.587372,2.388804,-44.515316,-143.27077
